! Created Thu Feb 25 13:12:28 2016
# mhz S ri R 50
! 2 Port Network Data from SP1.SP block
! freq  reS11  imS11  reS21  imS21  reS12  imS12  reS22  imS22  
!     
               100        0.95459585      -0.0600087476        -3.28360046        0.100810994    9.76489043e-011   -2.99795401e-012        0.998344657     5.0363778e-012
               200       0.943572774       -0.118646726        -3.26508237        0.199319181    9.70982067e-011   -5.92742627e-012        0.998344657    9.95771051e-012
               300       0.925750079        -0.17464559        -3.23514134        0.293393819    9.62078095e-011   -8.72505205e-012        0.998344657    1.46575492e-011
               400        0.90188844       -0.226926182        -3.19505526        0.381221988    9.50157151e-011   -1.13369181e-011        0.998344657    1.90453231e-011
               500       0.872939643       -0.274657944        -3.14642307        0.461408404    9.35694732e-011   -1.37215309e-011        0.998344657    2.30513255e-011
               600       0.839959282       -0.317285763         -3.0910181        0.533020509      9.192182e-011   -1.58511577e-011        0.998344657    2.66289672e-011
               700       0.804022955       -0.354525768        -3.03064728        0.595581421    9.01264908e-011   -1.77116168e-011        0.998344657    2.97544237e-011
               800       0.766156187       -0.386336692        -2.96703345        0.649021812    8.82347195e-011   -1.93008466e-011        0.998344657    3.24242318e-011
               900       0.727283629       -0.412875878        -2.90172995        0.693606007    8.62927003e-011   -2.06267076e-011        0.998344657    3.46515964e-011
              1000       0.688198584       -0.434448968        -2.83606949        0.729847467    8.43400655e-011   -2.17044693e-011        0.998344657    3.64621696e-011
              1100       0.649550633       -0.451460606        -2.77114331        0.758425969    8.24092674e-011   -2.25543472e-011        0.998344657    3.78899121e-011
              1200       0.611847272        -0.46437098        -2.70780399        0.780114602    8.05256596e-011   -2.31993317e-011        0.998344657    3.89734462e-011
              1300       0.575465065       -0.473660667        -2.64668413        0.795720702    7.87080549e-011   -2.36634316e-011        0.998344657    3.97531054e-011
              1400       0.540666198       -0.479804331        -2.58822418        0.806041679    7.69695516e-011   -2.39703605e-011        0.998344657     4.0268727e-011
              1500       0.507617198       -0.483252627         -2.5327039        0.811834603    7.53184693e-011   -2.41426326e-011        0.998344657    4.05581335e-011
              1600       0.476407551       -0.484420985        -2.48027361        0.813797373    7.37592785e-011   -2.42010022e-011        0.998344657    4.06561908e-011
              1700       0.447066834       -0.483683766        -2.43098302        0.812558892    7.22934569e-011   -2.41641718e-011        0.998344657     4.0594318e-011
              1800       0.419579634       -0.481372337        -2.38480622        0.808675833    7.09202344e-011    -2.4048696e-011        0.998344657    4.04003258e-011
              1900        0.39389803       -0.477775823        -2.34166271        0.802633911     6.9637217e-011   -2.38690191e-011        0.998344657    4.00984797e-011
              2000       0.369951679       -0.473143552        -2.30143431        0.794851981    6.84408904e-011   -2.36375972e-011        0.998344657    3.97097052e-011
! Noise params
100       0.586657621         0.63859269         3.77918084        0.297530151
200       0.641901266        0.611004365         7.60648201        0.297530151
300       0.723739113        0.572219406         11.5304237        0.297530151
400       0.823231066        0.528251224         15.6001289        0.297530151
500       0.933610441        0.483328109         19.8650971        0.297530151
600        1.05027089        0.440012657         24.3742476        0.297530151
700        1.17014619        0.399741626         29.1738563        0.297530151
800        1.29116595        0.363273129         34.3039712        0.297530151
900         1.4118945        0.330971238         39.7929913        0.297530151
1000        1.53130953        0.302969311         45.6504831        0.297530151
1100        1.64866792        0.279256639          51.859125        0.297530151
1200        1.76342312        0.259719328         58.3678585        0.297530151
1300        1.87517278        0.244156228         65.0893703        0.297530151
1400         1.9836241        0.232285253         71.9049096        0.297530151
1500        2.08857001        0.223751574         78.6773151        0.297530151
1600        2.18987194        0.218144239          85.269499        0.297530151
1700        2.28744685        0.215021593         91.5627578        0.297530151
1800        2.38125711        0.213940659         97.4693701        0.297530151
1900        2.47130225        0.214483769         102.936925        0.297530151
2000        2.55761214        0.216277523         107.945416        0.297530151
